!ATF-36077
!S AND NOISE PARAMETERS at Vds=1.5V  Id=10mA.   LAST UPDATED 06-27-94

# ghz s ma r 50 

0.5     0.998   -9      5.050   171     0.009   83      0.60    -7
1       0.99    -17     5.010   163     0.016   78      0.60    -14
2       0.97    -33     4.904   147     0.030   66      0.59    -28
3       0.94    -49     4.745   132     0.043   54      0.57    -41
4       0.90    -65     4.556   116     0.054   43      0.55    -54
5       0.86    -79     4.357   102     0.063   33      0.53    -66
6       0.82    -93     4.162   88      0.069   24      0.50    -78
7       0.78    -107    3.981   75      0.074   16      0.48    -89
8       0.75    -120    3.820   62      0.078   8       0.46    -99
9       0.72    -133    3.682   49      0.080   1       0.44    -109
10      0.69    -146    3.566   37      0.082   -6      0.42    -119
11      0.66    -159    3.473   25      0.083   -13     0.40    -129
12      0.63    -172    3.401   13      0.085   -19     0.38    -139
13      0.61    175     3.349   1       0.086   -25     0.37    -149
14      0.60    161     3.315   -12     0.087   -32     0.35    -160
15      0.58    147     3.296   -24     0.089   -39     0.33    -171
16      0.57    131     3.289   -37     0.091   -47     0.31    177
17      0.56    114     3.289   -50     0.092   -55     0.29    164
18      0.57    97      3.291   -64     0.094   -65     0.26    148

1       0.30    0.95    12      0.40
2       0.30    0.90    25      0.20
4       0.30    0.81    51      0.17
6       0.30    0.73    76      0.13
8       0.37    0.66    102     0.09
10      0.44    0.60    129     0.05
12      0.50    0.54    156     0.03
14      0.56    0.48    -174    0.02
16      0.61    0.43    -139    0.05
18      0.65    0.39    -100    0.09


